T19C4 000:100.173   SEGGER J-Link V6.86c Log File
T19C4 000:100.334   DLL Compiled: Oct  6 2020 14:16:38
T19C4 000:100.372   Logging started @ 2022-09-20 03:53
T19C4 000:100.408 - 100.426ms
T19C4 000:100.452 JLINK_SetWarnOutHandler(...)
T19C4 000:100.491 - 0.056ms
T19C4 000:100.529 JLINK_OpenEx(...)
T19C4 000:101.894   Firmware: J-Link V9 compiled May  7 2021 16:26:12
T19C4 000:102.098   Decompressing FW timestamp took 122 us
T19C4 000:108.688   Hardware: V9.40
T19C4 000:108.766   S/N: 59411109
T19C4 000:108.823   OEM: SEGGER
T19C4 000:108.878   Feature(s): RDI, GDB, FlashDL, FlashBP, JFlash
T19C4 000:110.046   TELNET listener socket opened on port 19021
T19C4 000:110.453   WEBSRV Starting webserver
T19C4 000:110.665   WEBSRV Webserver running on local port 19080
T19C4 000:110.726 - 10.215ms returns "O.K."
T19C4 000:110.779 JLINK_SetErrorOutHandler(...)
T19C4 000:110.815 - 0.054ms
T19C4 000:110.862 JLINK_ExecCommand("ProjectFile = "D:\项目文件夹\一牛网\校车NFC项目\软件\UY_GD106_XC-改为客户服务器-优先扫码成功\UY_GD106_XC\Project\MDK-ARM\JLinkSettings.ini"", ...). 
T19C4 000:121.331   Ref file found at: C:\Keil_v5\ARM\Segger\JLinkDevices.ref
T19C4 000:121.775   XML referenced by ref file: C:\Program Files (x86)\SEGGER\JLink\JLinkDevices.xml
T19C4 000:122.384   C:\Program Files (x86)\SEGGER\JLink\JLinkDevices.xml evaluated successfully.
T19C4 000:123.322 - 12.486ms returns 0x00
T19C4 000:146.863 JLINK_ExecCommand("Device = GD32F405RG", ...). 
T19C4 000:148.708   Device "GD32F405RG" selected.
T19C4 000:149.739 - 2.837ms returns 0x00
T19C4 000:149.802 JLINK_GetHardwareVersion()
T19C4 000:149.840 - 0.056ms returns 94000
T19C4 000:149.880 JLINK_GetDLLVersion()
T19C4 000:149.916 - 0.053ms returns 68603
T19C4 000:149.955 JLINK_GetOEMString(...)
T19C4 000:150.068 JLINK_GetFirmwareString(...)
T19C4 000:150.119 - 0.070ms
T19C4 000:153.785 JLINK_GetDLLVersion()
T19C4 000:153.833 - 0.066ms returns 68603
T19C4 000:153.872 JLINK_GetCompileDateTime()
T19C4 000:153.908 - 0.053ms
T19C4 000:155.060 JLINK_GetFirmwareString(...)
T19C4 000:155.103 - 0.060ms
T19C4 000:156.258 JLINK_GetHardwareVersion()
T19C4 000:156.300 - 0.060ms returns 94000
T19C4 000:157.452 JLINK_GetSN()
T19C4 000:157.494 - 0.059ms returns 59411109
T19C4 000:158.917 JLINK_GetOEMString(...)
T19C4 000:161.262 JLINK_TIF_Select(JLINKARM_TIF_SWD)
T19C4 000:162.283 - 1.058ms returns 0x00
T19C4 000:162.343 JLINK_HasError()
T19C4 000:162.392 JLINK_SetSpeed(1000)
T19C4 000:162.591 - 0.234ms
T19C4 000:162.651 JLINK_GetId()
T19C4 000:165.822   Found SW-DP with ID 0x2BA01477
T19C4 000:172.873   DPIDR: 0x2BA01477
T19C4 000:174.088   Scanning AP map to find all available APs
T19C4 000:177.153   AP[1]: Stopped AP scan as end of AP map has been reached
T19C4 000:185.850   AP[0]: AHB-AP (IDR: 0x24770011)
T19C4 000:187.365   Iterating through AP map to find AHB-AP to use
T19C4 000:190.616   AP[0]: Core found
T19C4 000:191.826   AP[0]: AHB-AP ROM base: 0xE00FF000
T19C4 000:194.029   CPUID register: 0x410FC241. Implementer code: 0x41 (ARM)
T19C4 000:195.183   Found Cortex-M4 r0p1, Little endian.
T19C4 000:296.950   -- Max. mem block: 0x00010E60
T19C4 000:297.300   CPU_ReadMem(4 bytes @ 0xE000EDF0)
T19C4 000:299.072   CPU_ReadMem(4 bytes @ 0xE0002000)
T19C4 000:314.669   FPUnit: 6 code (BP) slots and 2 literal slots
T19C4 000:314.983   CPU_ReadMem(4 bytes @ 0xE000EDFC)
T19C4 000:316.254   CPU_ReadMem(4 bytes @ 0xE0001000)
T19C4 000:317.518   CPU_WriteMem(4 bytes @ 0xE0001000)
T19C4 000:318.525   CPU_ReadMem(4 bytes @ 0xE000ED88)
T19C4 000:319.806   CPU_WriteMem(4 bytes @ 0xE000ED88)
T19C4 000:320.919   CPU_ReadMem(4 bytes @ 0xE000ED88)
T19C4 000:322.527   CPU_WriteMem(4 bytes @ 0xE000ED88)
T19C4 000:329.211   CoreSight components:
T19C4 000:333.920   ROMTbl[0] @ E00FF000
T19C4 000:334.102   CPU_ReadMem(64 bytes @ 0xE00FF000)
T19C4 000:336.055   CPU_ReadMem(32 bytes @ 0xE000EFE0)
T19C4 000:340.998   ROMTbl[0][0]: E000E000, CID: B105E00D, PID: 000BB00C SCS-M7
T19C4 000:341.142   CPU_ReadMem(32 bytes @ 0xE0001FE0)
T19C4 000:345.909   ROMTbl[0][1]: E0001000, CID: B105E00D, PID: 003BB002 DWT
T19C4 000:346.217   CPU_ReadMem(32 bytes @ 0xE0002FE0)
T19C4 000:354.470   ROMTbl[0][2]: E0002000, CID: B105E00D, PID: 002BB003 FPB
T19C4 000:354.675   CPU_ReadMem(32 bytes @ 0xE0000FE0)
T19C4 000:360.060   ROMTbl[0][3]: E0000000, CID: B105E00D, PID: 003BB001 ITM
T19C4 000:360.267   CPU_ReadMem(32 bytes @ 0xE0040FE0)
T19C4 000:367.175   ROMTbl[0][4]: E0040000, CID: B105900D, PID: 000BB9A1 TPIU
T19C4 000:367.382   CPU_ReadMem(32 bytes @ 0xE0041FE0)
T19C4 000:374.199   ROMTbl[0][5]: E0041000, CID: 00000000, PID: 00000000 ???
T19C4 000:374.942 - 212.357ms returns 0x2BA01477
T19C4 000:375.081 JLINK_GetDLLVersion()
T19C4 000:375.179 - 0.146ms returns 68603
T19C4 000:375.286 JLINK_CORE_GetFound()
T19C4 000:375.394 - 0.156ms returns 0xE0000FF
T19C4 000:375.500 JLINK_GetDebugInfo(0x100 = JLINKARM_ROM_TABLE_ADDR_INDEX)
T19C4 000:375.600   Value=0xE00FF000
T19C4 000:375.744 - 0.291ms returns 0
T19C4 000:379.015 JLINK_ReadMem(0xE00FF000, 0x20 Bytes, ...)
T19C4 000:379.167   CPU_ReadMem(32 bytes @ 0xE00FF000)
T19C4 000:381.182   Data:  03 F0 F0 FF 03 20 F0 FF 03 30 F0 FF 03 10 F0 FF ...
T19C4 000:381.377 - 2.410ms returns 0
T19C4 000:381.488 JLINK_ReadMem(0xE000EFF0, 0x10 Bytes, ...)
T19C4 000:381.605   CPU_ReadMem(16 bytes @ 0xE000EFF0)
T19C4 000:382.950   Data:  0D 00 00 00 E0 00 00 00 05 00 00 00 B1 00 00 00
T19C4 000:383.143 - 1.704ms returns 0
T19C4 000:383.256 JLINK_ReadMem(0xE000EFD0, 0x20 Bytes, ...)
T19C4 000:383.390   CPU_ReadMem(32 bytes @ 0xE000EFD0)
T19C4 000:385.098   Data:  04 00 00 00 00 00 00 00 00 00 00 00 00 00 00 00 ...
T19C4 000:385.295 - 2.088ms returns 0
T19C4 000:385.408 JLINK_ReadMem(0xE0001FF0, 0x10 Bytes, ...)
T19C4 000:385.529   CPU_ReadMem(16 bytes @ 0xE0001FF0)
T19C4 000:387.137   Data:  0D 00 00 00 E0 00 00 00 05 00 00 00 B1 00 00 00
T19C4 000:387.332 - 1.973ms returns 0
T19C4 000:387.445 JLINK_ReadMem(0xE0001FD0, 0x20 Bytes, ...)
T19C4 000:387.566   CPU_ReadMem(32 bytes @ 0xE0001FD0)
T19C4 000:389.542   Data:  04 00 00 00 00 00 00 00 00 00 00 00 00 00 00 00 ...
T19C4 000:389.739 - 2.343ms returns 0
T19C4 000:389.852 JLINK_ReadMem(0xE0002FF0, 0x10 Bytes, ...)
T19C4 000:389.972   CPU_ReadMem(16 bytes @ 0xE0002FF0)
T19C4 000:391.742   Data:  0D 00 00 00 E0 00 00 00 05 00 00 00 B1 00 00 00
T19C4 000:391.940 - 2.137ms returns 0
T19C4 000:392.053 JLINK_ReadMem(0xE0002FD0, 0x20 Bytes, ...)
T19C4 000:392.172   CPU_ReadMem(32 bytes @ 0xE0002FD0)
T19C4 000:393.946   Data:  04 00 00 00 00 00 00 00 00 00 00 00 00 00 00 00 ...
T19C4 000:394.142 - 2.137ms returns 0
T19C4 000:394.255 JLINK_ReadMem(0xE0000FF0, 0x10 Bytes, ...)
T19C4 000:394.376   CPU_ReadMem(16 bytes @ 0xE0000FF0)
T19C4 000:395.829   Data:  0D 00 00 00 E0 00 00 00 05 00 00 00 B1 00 00 00
T19C4 000:396.025 - 1.819ms returns 0
T19C4 000:396.138 JLINK_ReadMem(0xE0000FD0, 0x20 Bytes, ...)
T19C4 000:396.257   CPU_ReadMem(32 bytes @ 0xE0000FD0)
T19C4 000:397.823   Data:  04 00 00 00 00 00 00 00 00 00 00 00 00 00 00 00 ...
T19C4 000:398.004 - 1.915ms returns 0
T19C4 000:398.114 JLINK_ReadMem(0xE0040FF0, 0x10 Bytes, ...)
T19C4 000:398.230   CPU_ReadMem(16 bytes @ 0xE0040FF0)
T19C4 000:399.494   Data:  0D 00 00 00 90 00 00 00 05 00 00 00 B1 00 00 00
T19C4 000:399.659 - 1.594ms returns 0
T19C4 000:399.767 JLINK_ReadMem(0xE0040FD0, 0x20 Bytes, ...)
T19C4 000:399.877   CPU_ReadMem(32 bytes @ 0xE0040FD0)
T19C4 000:401.844   Data:  04 00 00 00 00 00 00 00 00 00 00 00 00 00 00 00 ...
T19C4 000:402.041 - 2.323ms returns 0
T19C4 000:402.163 JLINK_ReadMem(0xE0041FF0, 0x10 Bytes, ...)
T19C4 000:402.284   CPU_ReadMem(16 bytes @ 0xE0041FF0)
T19C4 000:403.837   Data:  00 00 00 00 00 00 00 00 00 00 00 00 00 00 00 00
T19C4 000:404.035 - 1.921ms returns 0
T19C4 000:404.156 JLINK_ReadMem(0xE0041FD0, 0x20 Bytes, ...)
T19C4 000:404.278   CPU_ReadMem(32 bytes @ 0xE0041FD0)
T19C4 000:406.219   Data:  00 00 00 00 00 00 00 00 00 00 00 00 00 00 00 00 ...
T19C4 000:406.416 - 2.308ms returns 0
T19C4 000:406.537 JLINK_ReadMemU32(0xE000EF40, 0x1 Items)
T19C4 000:406.656   CPU_ReadMem(4 bytes @ 0xE000EF40)
T19C4 000:408.204   Data:  21 00 11 10
T19C4 000:408.401 - 1.915ms returns 1 (0x1)
T19C4 000:408.524 JLINK_ReadMemU32(0xE000EF44, 0x1 Items)
T19C4 000:408.644   CPU_ReadMem(4 bytes @ 0xE000EF44)
T19C4 000:410.170   Data:  11 00 00 11
T19C4 000:410.368 - 1.893ms returns 1 (0x1)
T19C4 000:410.490 JLINK_ReadMemU32(0xE000ED00, 0x1 Items)
T19C4 000:410.609   CPU_ReadMem(4 bytes @ 0xE000ED00)
T19C4 000:412.185   Data:  41 C2 0F 41
T19C4 000:412.414   Debug reg: CPUID
T19C4 000:412.560 - 2.119ms returns 1 (0x1)
T19C4 000:412.680 JLINK_HasError()
T19C4 000:412.803 JLINK_SetResetType(JLINKARM_CM3_RESET_TYPE_NORMAL)
T19C4 000:412.905 - 0.150ms returns JLINKARM_CM3_RESET_TYPE_NORMAL
T19C4 000:413.016 JLINK_Reset()
T19C4 000:413.163   CPU is running
T19C4 000:413.319   CPU_WriteMem(4 bytes @ 0xE000EDF0)
T19C4 000:414.247   CPU is running
T19C4 000:414.420   CPU_WriteMem(4 bytes @ 0xE000EDFC)
T19C4 000:418.821   Reset: Halt core after reset via DEMCR.VC_CORERESET.
T19C4 000:422.893   Reset: Reset device via AIRCR.SYSRESETREQ.
T19C4 000:423.065   CPU is running
T19C4 000:423.211   CPU_WriteMem(4 bytes @ 0xE000ED0C)
T19C4 000:478.115   CPU_ReadMem(4 bytes @ 0xE000EDF0)
T19C4 000:479.914   CPU_ReadMem(4 bytes @ 0xE000EDF0)
T19C4 000:481.390   CPU is running
T19C4 000:481.697   CPU_WriteMem(4 bytes @ 0xE000EDF0)
T19C4 000:483.087   CPU is running
T19C4 000:483.396   CPU_WriteMem(4 bytes @ 0xE000EDFC)
T19C4 000:490.467   CPU_ReadMem(4 bytes @ 0xE000EDF0)
T19C4 000:504.250   CPU_WriteMem(4 bytes @ 0xE0002000)
T19C4 000:505.347   CPU_ReadMem(4 bytes @ 0xE000EDFC)
T19C4 000:506.671   CPU_ReadMem(4 bytes @ 0xE0001000)
T19C4 000:508.044 - 95.153ms
T19C4 000:508.309 JLINK_Halt()
T19C4 000:508.551 - 0.327ms returns 0x00
T19C4 000:508.739 JLINK_IsHalted()
T19C4 000:508.911 - 0.256ms returns TRUE
T19C4 000:509.096 JLINK_ReadMemU32(0xE000EDF0, 0x1 Items)
T19C4 000:509.293   CPU_ReadMem(4 bytes @ 0xE000EDF0)
T19C4 000:510.587   Data:  03 00 03 00
T19C4 000:510.893   Debug reg: DHCSR
T19C4 000:511.146 - 2.134ms returns 1 (0x1)
T19C4 000:511.372 JLINK_WriteU32_64(0xE000EDF0, 0xA05F0003)
T19C4 000:511.565   Debug reg: DHCSR
T19C4 000:511.864   CPU_WriteMem(4 bytes @ 0xE000EDF0)
T19C4 000:512.913 - 1.664ms returns 0 (0x00000000)
T19C4 000:513.159 JLINK_WriteU32_64(0xE000EDFC, 0x01000000)
T19C4 000:513.336   Debug reg: DEMCR
T19C4 000:513.625   CPU_WriteMem(4 bytes @ 0xE000EDFC)
T19C4 000:514.672 - 1.638ms returns 0 (0x00000000)
T19C4 000:547.515 JLINK_GetHWStatus(...)
T19C4 000:548.156 - 0.716ms returns 0
T19C4 000:561.468 JLINK_GetNumBPUnits(Type = 0xFFFFFF00)
T19C4 000:561.614 - 0.199ms returns 0x06
T19C4 000:561.725 JLINK_GetNumBPUnits(Type = 0xF0)
T19C4 000:561.836 - 0.162ms returns 0x2000
T19C4 000:561.943 JLINK_GetNumWPUnits()
T19C4 000:562.044 - 0.151ms returns 4
T19C4 000:572.810 JLINK_GetSpeed()
T19C4 000:572.953 - 0.193ms returns 1000
T19C4 000:579.256 JLINK_ReadMemU32(0xE000E004, 0x1 Items)
T19C4 000:579.424   CPU_ReadMem(4 bytes @ 0xE000E004)
T19C4 000:580.533   Data:  02 00 00 00
T19C4 000:580.725 - 1.518ms returns 1 (0x1)
T19C4 000:580.835 JLINK_ReadMemU32(0xE000E004, 0x1 Items)
T19C4 000:580.949   CPU_ReadMem(4 bytes @ 0xE000E004)
T19C4 000:582.104   Data:  02 00 00 00
T19C4 000:582.272 - 1.486ms returns 1 (0x1)
T19C4 000:582.382 JLINK_WriteMem(0xE0001000, 0x1C Bytes, ...)
T19C4 000:582.482   Data:  01 00 00 00 00 00 00 00 00 00 00 00 00 00 00 00 ...
T19C4 000:583.131   CPU_WriteMem(28 bytes @ 0xE0001000)
T19C4 000:584.267 - 1.954ms returns 0x1C
T19C4 000:584.398 JLINK_ReadMem(0xE0001000, 0x1C Bytes, ...)
T19C4 000:584.511   CPU_ReadMem(28 bytes @ 0xE0001000)
T19C4 000:585.878   Data:  01 00 00 40 00 00 00 00 00 00 00 00 00 00 00 00 ...
T19C4 000:586.074 - 1.725ms returns 0
T19C4 000:586.191 JLINK_Halt()
T19C4 000:586.288 - 0.145ms returns 0x00
T19C4 000:586.389 JLINK_IsHalted()
T19C4 000:586.492 - 0.151ms returns TRUE
T19C4 000:599.170 JLINK_WriteMem(0x20000000, 0x1D0 Bytes, ...)
T19C4 000:599.294   Data:  00 BE 0A E0 0D 78 2D 06 68 40 08 24 40 00 00 D3 ...
T19C4 000:599.988   CPU_WriteMem(464 bytes @ 0x20000000)
T19C4 000:606.663 - 7.576ms returns 0x1D0
T19C4 000:606.899 JLINK_HasError()
T19C4 000:607.012 JLINK_WriteReg(R0, 0x08004000)
T19C4 000:607.120 - 0.157ms returns 0
T19C4 000:607.223 JLINK_WriteReg(R1, 0x00B71B00)
T19C4 000:607.322 - 0.147ms returns 0
T19C4 000:607.423 JLINK_WriteReg(R2, 0x00000001)
T19C4 000:607.578 - 0.225ms returns 0
T19C4 000:607.692 JLINK_WriteReg(R3, 0x00000000)
T19C4 000:607.771 - 0.125ms returns 0
T19C4 000:607.850 JLINK_WriteReg(R4, 0x00000000)
T19C4 000:607.912 - 0.092ms returns 0
T19C4 000:607.975 JLINK_WriteReg(R5, 0x00000000)
T19C4 000:608.038 - 0.092ms returns 0
T19C4 000:608.101 JLINK_WriteReg(R6, 0x00000000)
T19C4 000:608.165 - 0.093ms returns 0
T19C4 000:608.232 JLINK_WriteReg(R7, 0x00000000)
T19C4 000:608.295 - 0.099ms returns 0
T19C4 000:608.367 JLINK_WriteReg(R8, 0x00000000)
T19C4 000:608.445 - 0.109ms returns 0
T19C4 000:608.510 JLINK_WriteReg(R9, 0x200001CC)
T19C4 000:608.574 - 0.095ms returns 0
T19C4 000:608.639 JLINK_WriteReg(R10, 0x00000000)
T19C4 000:608.703 - 0.094ms returns 0
T19C4 000:608.774 JLINK_WriteReg(R11, 0x00000000)
T19C4 000:608.842 - 0.134ms returns 0
T19C4 000:608.943 JLINK_WriteReg(R12, 0x00000000)
T19C4 000:609.040 - 0.130ms returns 0
T19C4 000:609.110 JLINK_WriteReg(R13 (SP), 0x20000800)
T19C4 000:609.179 - 0.100ms returns 0
T19C4 000:609.244 JLINK_WriteReg(R14, 0x20000001)
T19C4 000:609.316 - 0.102ms returns 0
T19C4 000:609.381 JLINK_WriteReg(R15 (PC), 0x20000070)
T19C4 000:609.452 - 0.101ms returns 0
T19C4 000:609.516 JLINK_WriteReg(XPSR, 0x01000000)
T19C4 000:609.578 - 0.091ms returns 0
T19C4 000:609.642 JLINK_WriteReg(MSP, 0x20000800)
T19C4 000:609.704 - 0.091ms returns 0
T19C4 000:609.767 JLINK_WriteReg(PSP, 0x20000800)
T19C4 000:609.835 - 0.101ms returns 0
T19C4 000:609.903 JLINK_WriteReg(CFBP, 0x00000000)
T19C4 000:609.998 - 0.133ms returns 0
T19C4 000:610.079 JLINK_SetBPEx(Addr = 0x20000000, Type = 0xFFFFFFF2)
T19C4 000:610.177   CPU_ReadMem(2 bytes @ 0x20000000)
T19C4 000:611.175 - 1.157ms returns 0x00000001
T19C4 000:611.313 JLINK_Go()
T19C4 000:611.391   CPU_WriteMem(2 bytes @ 0x20000000)
T19C4 000:612.069   CPU_ReadMem(4 bytes @ 0xE0001000)
T19C4 000:613.130   CPU_WriteMem(4 bytes @ 0xE0002008)
T19C4 000:613.300   CPU_WriteMem(4 bytes @ 0xE000200C)
T19C4 000:613.447   CPU_WriteMem(4 bytes @ 0xE0002010)
T19C4 000:613.603   CPU_WriteMem(4 bytes @ 0xE0002014)
T19C4 000:613.748   CPU_WriteMem(4 bytes @ 0xE0002018)
T19C4 000:613.875   CPU_WriteMem(4 bytes @ 0xE000201C)
T19C4 000:616.476   CPU_WriteMem(4 bytes @ 0xE0001004)
T19C4 000:628.811 - 17.591ms
T19C4 000:628.975 JLINK_IsHalted()
T19C4 000:641.184   CPU_ReadMem(2 bytes @ 0x20000000)
T19C4 000:642.299 - 13.392ms returns TRUE
T19C4 000:642.439 JLINK_ReadReg(R15 (PC))
T19C4 000:642.546 - 0.157ms returns 0x20000000
T19C4 000:642.654 JLINK_ClrBPEx(BPHandle = 0x00000001)
T19C4 000:642.754 - 0.157ms returns 0x00
T19C4 000:642.855 JLINK_ReadReg(R0)
T19C4 000:642.931 - 0.113ms returns 0x00000000
T19C4 000:643.771 JLINK_HasError()
T19C4 000:643.895 JLINK_WriteReg(R0, 0x08004000)
T19C4 000:643.997 - 0.150ms returns 0
T19C4 000:644.098 JLINK_WriteReg(R1, 0x00004000)
T19C4 000:644.195 - 0.147ms returns 0
T19C4 000:644.298 JLINK_WriteReg(R2, 0x000000FF)
T19C4 000:644.395 - 0.144ms returns 0
T19C4 000:644.495 JLINK_WriteReg(R3, 0x00000000)
T19C4 000:644.592 - 0.144ms returns 0
T19C4 000:644.692 JLINK_WriteReg(R4, 0x00000000)
T19C4 000:644.790 - 0.146ms returns 0
T19C4 000:644.891 JLINK_WriteReg(R5, 0x00000000)
T19C4 000:644.990 - 0.147ms returns 0
T19C4 000:645.091 JLINK_WriteReg(R6, 0x00000000)
T19C4 000:645.190 - 0.147ms returns 0
T19C4 000:645.292 JLINK_WriteReg(R7, 0x00000000)
T19C4 000:645.389 - 0.145ms returns 0
T19C4 000:645.490 JLINK_WriteReg(R8, 0x00000000)
T19C4 000:645.587 - 0.146ms returns 0
T19C4 000:645.690 JLINK_WriteReg(R9, 0x200001CC)
T19C4 000:645.835 - 0.182ms returns 0
T19C4 000:645.913 JLINK_WriteReg(R10, 0x00000000)
T19C4 000:646.103 - 0.235ms returns 0
T19C4 000:646.191 JLINK_WriteReg(R11, 0x00000000)
T19C4 000:646.271 - 0.117ms returns 0
T19C4 000:646.350 JLINK_WriteReg(R12, 0x00000000)
T19C4 000:646.426 - 0.113ms returns 0
T19C4 000:646.504 JLINK_WriteReg(R13 (SP), 0x20000800)
T19C4 000:646.581 - 0.114ms returns 0
T19C4 000:646.660 JLINK_WriteReg(R14, 0x20000001)
T19C4 000:646.736 - 0.114ms returns 0
T19C4 000:646.815 JLINK_WriteReg(R15 (PC), 0x20000020)
T19C4 000:646.892 - 0.113ms returns 0
T19C4 000:646.970 JLINK_WriteReg(XPSR, 0x01000000)
T19C4 000:647.046 - 0.113ms returns 0
T19C4 000:647.124 JLINK_WriteReg(MSP, 0x20000800)
T19C4 000:647.202 - 0.143ms returns 0
T19C4 000:647.320 JLINK_WriteReg(PSP, 0x20000800)
T19C4 000:647.418 - 0.147ms returns 0
T19C4 000:647.521 JLINK_WriteReg(CFBP, 0x00000000)
T19C4 000:647.618 - 0.146ms returns 0
T19C4 000:647.722 JLINK_SetBPEx(Addr = 0x20000000, Type = 0xFFFFFFF2)
T19C4 000:647.843 - 0.170ms returns 0x00000002
T19C4 000:647.944 JLINK_Go()
T19C4 000:648.058   CPU_ReadMem(4 bytes @ 0xE0001000)
T19C4 000:660.475 - 12.595ms
T19C4 000:660.581 JLINK_IsHalted()
T19C4 000:661.521 - 0.990ms returns FALSE
T19C4 000:661.611 JLINK_HasError()
T19C4 000:750.944 JLINK_IsHalted()
T19C4 000:763.723   CPU_ReadMem(2 bytes @ 0x20000000)
T19C4 000:765.075 - 14.230ms returns TRUE
T19C4 000:765.240 JLINK_ReadReg(R15 (PC))
T19C4 000:765.350 - 0.158ms returns 0x20000000
T19C4 000:765.452 JLINK_ClrBPEx(BPHandle = 0x00000002)
T19C4 000:765.551 - 0.145ms returns 0x00
T19C4 000:765.668 JLINK_ReadReg(R0)
T19C4 000:765.768 - 0.149ms returns 0x00000000
T19C4 000:767.337 JLINK_HasError()
T19C4 000:767.459 JLINK_WriteReg(R0, 0x08008000)
T19C4 000:767.561 - 0.150ms returns 0
T19C4 000:767.668 JLINK_WriteReg(R1, 0x00004000)
T19C4 000:767.765 - 0.145ms returns 0
T19C4 000:767.865 JLINK_WriteReg(R2, 0x000000FF)
T19C4 000:767.962 - 0.144ms returns 0
T19C4 000:768.062 JLINK_WriteReg(R3, 0x00000000)
T19C4 000:768.158 - 0.144ms returns 0
T19C4 000:768.258 JLINK_WriteReg(R4, 0x00000000)
T19C4 000:768.355 - 0.144ms returns 0
T19C4 000:768.455 JLINK_WriteReg(R5, 0x00000000)
T19C4 000:768.551 - 0.144ms returns 0
T19C4 000:768.654 JLINK_WriteReg(R6, 0x00000000)
T19C4 000:768.752 - 0.145ms returns 0
T19C4 000:768.852 JLINK_WriteReg(R7, 0x00000000)
T19C4 000:768.949 - 0.145ms returns 0
T19C4 000:769.049 JLINK_WriteReg(R8, 0x00000000)
T19C4 000:769.145 - 0.144ms returns 0
T19C4 000:769.245 JLINK_WriteReg(R9, 0x200001CC)
T19C4 000:769.341 - 0.143ms returns 0
T19C4 000:769.442 JLINK_WriteReg(R10, 0x00000000)
T19C4 000:769.538 - 0.144ms returns 0
T19C4 000:769.652 JLINK_WriteReg(R11, 0x00000000)
T19C4 000:769.749 - 0.143ms returns 0
T19C4 000:769.848 JLINK_WriteReg(R12, 0x00000000)
T19C4 000:769.944 - 0.143ms returns 0
T19C4 000:770.043 JLINK_WriteReg(R13 (SP), 0x20000800)
T19C4 000:770.139 - 0.144ms returns 0
T19C4 000:770.239 JLINK_WriteReg(R14, 0x20000001)
T19C4 000:770.335 - 0.143ms returns 0
T19C4 000:770.434 JLINK_WriteReg(R15 (PC), 0x20000020)
T19C4 000:770.530 - 0.143ms returns 0
T19C4 000:770.633 JLINK_WriteReg(XPSR, 0x01000000)
T19C4 000:770.730 - 0.145ms returns 0
T19C4 000:770.830 JLINK_WriteReg(MSP, 0x20000800)
T19C4 000:770.926 - 0.144ms returns 0
T19C4 000:771.026 JLINK_WriteReg(PSP, 0x20000800)
T19C4 000:771.122 - 0.143ms returns 0
T19C4 000:771.222 JLINK_WriteReg(CFBP, 0x00000000)
T19C4 000:771.318 - 0.143ms returns 0
T19C4 000:771.419 JLINK_SetBPEx(Addr = 0x20000000, Type = 0xFFFFFFF2)
T19C4 000:771.518 - 0.147ms returns 0x00000003
T19C4 000:771.625 JLINK_Go()
T19C4 000:771.740   CPU_ReadMem(4 bytes @ 0xE0001000)
T19C4 000:785.574 - 14.047ms
T19C4 000:785.746 JLINK_IsHalted()
T19C4 000:786.814 - 1.162ms returns FALSE
T19C4 000:786.982 JLINK_HasError()
T19C4 000:926.511 JLINK_IsHalted()
T19C4 000:938.762   CPU_ReadMem(2 bytes @ 0x20000000)
T19C4 000:939.953 - 13.517ms returns TRUE
T19C4 000:940.092 JLINK_ReadReg(R15 (PC))
T19C4 000:940.200 - 0.157ms returns 0x20000000
T19C4 000:940.304 JLINK_ClrBPEx(BPHandle = 0x00000003)
T19C4 000:940.411 - 0.161ms returns 0x00
T19C4 000:940.520 JLINK_ReadReg(R0)
T19C4 000:940.619 - 0.147ms returns 0x00000000
T19C4 000:942.295 JLINK_HasError()
T19C4 000:942.427 JLINK_WriteReg(R0, 0x0800C000)
T19C4 000:942.531 - 0.152ms returns 0
T19C4 000:942.633 JLINK_WriteReg(R1, 0x00004000)
T19C4 000:942.730 - 0.145ms returns 0
T19C4 000:942.830 JLINK_WriteReg(R2, 0x000000FF)
T19C4 000:942.927 - 0.144ms returns 0
T19C4 000:943.026 JLINK_WriteReg(R3, 0x00000000)
T19C4 000:943.125 - 0.145ms returns 0
T19C4 000:943.223 JLINK_WriteReg(R4, 0x00000000)
T19C4 000:943.318 - 0.142ms returns 0
T19C4 000:943.417 JLINK_WriteReg(R5, 0x00000000)
T19C4 000:943.512 - 0.141ms returns 0
T19C4 000:943.610 JLINK_WriteReg(R6, 0x00000000)
T19C4 000:943.705 - 0.142ms returns 0
T19C4 000:943.804 JLINK_WriteReg(R7, 0x00000000)
T19C4 000:943.899 - 0.141ms returns 0
T19C4 000:943.998 JLINK_WriteReg(R8, 0x00000000)
T19C4 000:944.096 - 0.144ms returns 0
T19C4 000:944.194 JLINK_WriteReg(R9, 0x200001CC)
T19C4 000:944.289 - 0.141ms returns 0
T19C4 000:944.387 JLINK_WriteReg(R10, 0x00000000)
T19C4 000:944.483 - 0.144ms returns 0
T19C4 000:944.583 JLINK_WriteReg(R11, 0x00000000)
T19C4 000:944.678 - 0.141ms returns 0
T19C4 000:944.776 JLINK_WriteReg(R12, 0x00000000)
T19C4 000:944.871 - 0.141ms returns 0
T19C4 000:944.970 JLINK_WriteReg(R13 (SP), 0x20000800)
T19C4 000:945.069 - 0.145ms returns 0
T19C4 000:945.167 JLINK_WriteReg(R14, 0x20000001)
T19C4 000:945.263 - 0.142ms returns 0
T19C4 000:945.361 JLINK_WriteReg(R15 (PC), 0x20000020)
T19C4 000:945.457 - 0.142ms returns 0
T19C4 000:945.555 JLINK_WriteReg(XPSR, 0x01000000)
T19C4 000:945.651 - 0.142ms returns 0
T19C4 000:945.749 JLINK_WriteReg(MSP, 0x20000800)
T19C4 000:945.843 - 0.140ms returns 0
T19C4 000:945.940 JLINK_WriteReg(PSP, 0x20000800)
T19C4 000:946.034 - 0.142ms returns 0
T19C4 000:946.134 JLINK_WriteReg(CFBP, 0x00000000)
T19C4 000:946.230 - 0.142ms returns 0
T19C4 000:946.328 JLINK_SetBPEx(Addr = 0x20000000, Type = 0xFFFFFFF2)
T19C4 000:946.426 - 0.146ms returns 0x00000004
T19C4 000:946.527 JLINK_Go()
T19C4 000:946.638   CPU_ReadMem(4 bytes @ 0xE0001000)
T19C4 000:959.905 - 13.477ms
T19C4 000:960.070 JLINK_IsHalted()
T19C4 000:961.531 - 1.563ms returns FALSE
T19C4 000:961.706 JLINK_HasError()
T19C4 001:137.357 JLINK_IsHalted()
T19C4 001:149.892   CPU_ReadMem(2 bytes @ 0x20000000)
T19C4 001:151.454 - 14.196ms returns TRUE
T19C4 001:151.628 JLINK_ReadReg(R15 (PC))
T19C4 001:151.740 - 0.160ms returns 0x20000000
T19C4 001:151.846 JLINK_ClrBPEx(BPHandle = 0x00000004)
T19C4 001:151.945 - 0.146ms returns 0x00
T19C4 001:152.049 JLINK_ReadReg(R0)
T19C4 001:152.147 - 0.146ms returns 0x00000000
T19C4 001:154.062 JLINK_HasError()
T19C4 001:154.156 JLINK_WriteReg(R0, 0x08010000)
T19C4 001:154.227 - 0.101ms returns 0
T19C4 001:154.292 JLINK_WriteReg(R1, 0x00004000)
T19C4 001:154.358 - 0.096ms returns 0
T19C4 001:154.444 JLINK_WriteReg(R2, 0x000000FF)
T19C4 001:154.519 - 0.112ms returns 0
T19C4 001:154.596 JLINK_WriteReg(R3, 0x00000000)
T19C4 001:154.671 - 0.111ms returns 0
T19C4 001:154.748 JLINK_WriteReg(R4, 0x00000000)
T19C4 001:154.822 - 0.112ms returns 0
T19C4 001:154.901 JLINK_WriteReg(R5, 0x00000000)
T19C4 001:154.975 - 0.111ms returns 0
T19C4 001:155.053 JLINK_WriteReg(R6, 0x00000000)
T19C4 001:155.127 - 0.112ms returns 0
T19C4 001:155.205 JLINK_WriteReg(R7, 0x00000000)
T19C4 001:155.281 - 0.113ms returns 0
T19C4 001:155.360 JLINK_WriteReg(R8, 0x00000000)
T19C4 001:155.436 - 0.113ms returns 0
T19C4 001:155.514 JLINK_WriteReg(R9, 0x200001CC)
T19C4 001:155.589 - 0.111ms returns 0
T19C4 001:155.666 JLINK_WriteReg(R10, 0x00000000)
T19C4 001:155.740 - 0.110ms returns 0
T19C4 001:155.817 JLINK_WriteReg(R11, 0x00000000)
T19C4 001:155.893 - 0.112ms returns 0
T19C4 001:155.970 JLINK_WriteReg(R12, 0x00000000)
T19C4 001:156.044 - 0.110ms returns 0
T19C4 001:156.120 JLINK_WriteReg(R13 (SP), 0x20000800)
T19C4 001:156.196 - 0.113ms returns 0
T19C4 001:156.273 JLINK_WriteReg(R14, 0x20000001)
T19C4 001:156.347 - 0.110ms returns 0
T19C4 001:156.432 JLINK_WriteReg(R15 (PC), 0x20000020)
T19C4 001:156.516 - 0.121ms returns 0
T19C4 001:156.593 JLINK_WriteReg(XPSR, 0x01000000)
T19C4 001:156.667 - 0.111ms returns 0
T19C4 001:156.744 JLINK_WriteReg(MSP, 0x20000800)
T19C4 001:156.818 - 0.110ms returns 0
T19C4 001:156.895 JLINK_WriteReg(PSP, 0x20000800)
T19C4 001:156.969 - 0.110ms returns 0
T19C4 001:157.047 JLINK_WriteReg(CFBP, 0x00000000)
T19C4 001:157.123 - 0.112ms returns 0
T19C4 001:157.201 JLINK_SetBPEx(Addr = 0x20000000, Type = 0xFFFFFFF2)
T19C4 001:157.279 - 0.124ms returns 0x00000005
T19C4 001:157.361 JLINK_Go()
T19C4 001:157.439   CPU_ReadMem(4 bytes @ 0xE0001000)
T19C4 001:170.005 - 12.739ms
T19C4 001:170.163 JLINK_IsHalted()
T19C4 001:171.267 - 1.173ms returns FALSE
T19C4 001:171.399 JLINK_HasError()
T19C4 001:288.583 JLINK_IsHalted()
T19C4 001:300.894   CPU_ReadMem(2 bytes @ 0x20000000)
T19C4 001:302.083 - 13.571ms returns TRUE
T19C4 001:302.218 JLINK_ReadReg(R15 (PC))
T19C4 001:302.325 - 0.156ms returns 0x20000000
T19C4 001:302.428 JLINK_ClrBPEx(BPHandle = 0x00000005)
T19C4 001:302.527 - 0.147ms returns 0x00
T19C4 001:302.629 JLINK_ReadReg(R0)
T19C4 001:302.727 - 0.146ms returns 0x00000000
T19C4 001:304.266 JLINK_HasError()
T19C4 001:304.387 JLINK_WriteReg(R0, 0x08014000)
T19C4 001:304.489 - 0.150ms returns 0
T19C4 001:304.590 JLINK_WriteReg(R1, 0x00010000)
T19C4 001:304.688 - 0.146ms returns 0
T19C4 001:304.788 JLINK_WriteReg(R2, 0x000000FF)
T19C4 001:304.884 - 0.143ms returns 0
T19C4 001:304.984 JLINK_WriteReg(R3, 0x00000000)
T19C4 001:305.083 - 0.146ms returns 0
T19C4 001:305.182 JLINK_WriteReg(R4, 0x00000000)
T19C4 001:305.277 - 0.142ms returns 0
T19C4 001:305.376 JLINK_WriteReg(R5, 0x00000000)
T19C4 001:305.472 - 0.143ms returns 0
T19C4 001:305.571 JLINK_WriteReg(R6, 0x00000000)
T19C4 001:305.667 - 0.143ms returns 0
T19C4 001:305.766 JLINK_WriteReg(R7, 0x00000000)
T19C4 001:305.862 - 0.143ms returns 0
T19C4 001:305.961 JLINK_WriteReg(R8, 0x00000000)
T19C4 001:306.060 - 0.146ms returns 0
T19C4 001:306.166 JLINK_WriteReg(R9, 0x200001CC)
T19C4 001:306.262 - 0.147ms returns 0
T19C4 001:306.369 JLINK_WriteReg(R10, 0x00000000)
T19C4 001:306.465 - 0.143ms returns 0
T19C4 001:306.567 JLINK_WriteReg(R11, 0x00000000)
T19C4 001:306.662 - 0.142ms returns 0
T19C4 001:306.764 JLINK_WriteReg(R12, 0x00000000)
T19C4 001:306.860 - 0.143ms returns 0
T19C4 001:306.963 JLINK_WriteReg(R13 (SP), 0x20000800)
T19C4 001:307.064 - 0.147ms returns 0
T19C4 001:307.166 JLINK_WriteReg(R14, 0x20000001)
T19C4 001:307.261 - 0.143ms returns 0
T19C4 001:307.365 JLINK_WriteReg(R15 (PC), 0x20000020)
T19C4 001:307.463 - 0.144ms returns 0
T19C4 001:307.564 JLINK_WriteReg(XPSR, 0x01000000)
T19C4 001:307.660 - 0.143ms returns 0
T19C4 001:307.762 JLINK_WriteReg(MSP, 0x20000800)
T19C4 001:307.857 - 0.142ms returns 0
T19C4 001:307.960 JLINK_WriteReg(PSP, 0x20000800)
T19C4 001:308.057 - 0.144ms returns 0
T19C4 001:308.159 JLINK_WriteReg(CFBP, 0x00000000)
T19C4 001:308.254 - 0.142ms returns 0
T19C4 001:308.355 JLINK_SetBPEx(Addr = 0x20000000, Type = 0xFFFFFFF2)
T19C4 001:308.452 - 0.144ms returns 0x00000006
T19C4 001:308.555 JLINK_Go()
T19C4 001:308.665   CPU_ReadMem(4 bytes @ 0xE0001000)
T19C4 001:321.788 - 13.332ms
T19C4 001:321.962 JLINK_IsHalted()
T19C4 001:323.154 - 1.298ms returns FALSE
T19C4 001:323.335 JLINK_HasError()
T19C4 001:523.980 JLINK_IsHalted()
T19C4 001:536.495   CPU_ReadMem(2 bytes @ 0x20000000)
T19C4 001:537.617 - 13.707ms returns TRUE
T19C4 001:537.759 JLINK_ReadReg(R15 (PC))
T19C4 001:537.866 - 0.157ms returns 0x20000000
T19C4 001:537.974 JLINK_ClrBPEx(BPHandle = 0x00000006)
T19C4 001:538.075 - 0.156ms returns 0x00
T19C4 001:538.196 JLINK_ReadReg(R0)
T19C4 001:538.296 - 0.154ms returns 0x00000000
T19C4 001:540.413 JLINK_HasError()
T19C4 001:540.537 JLINK_WriteReg(R0, 0x08024000)
T19C4 001:540.669 - 0.187ms returns 0
T19C4 001:540.779 JLINK_WriteReg(R1, 0x00020000)
T19C4 001:540.877 - 0.146ms returns 0
T19C4 001:540.977 JLINK_WriteReg(R2, 0x000000FF)
T19C4 001:541.074 - 0.159ms returns 0
T19C4 001:541.196 JLINK_WriteReg(R3, 0x00000000)
T19C4 001:541.294 - 0.145ms returns 0
T19C4 001:541.394 JLINK_WriteReg(R4, 0x00000000)
T19C4 001:541.490 - 0.142ms returns 0
T19C4 001:541.589 JLINK_WriteReg(R5, 0x00000000)
T19C4 001:541.685 - 0.143ms returns 0
T19C4 001:541.785 JLINK_WriteReg(R6, 0x00000000)
T19C4 001:541.880 - 0.142ms returns 0
T19C4 001:541.982 JLINK_WriteReg(R7, 0x00000000)
T19C4 001:542.078 - 0.147ms returns 0
T19C4 001:542.186 JLINK_WriteReg(R8, 0x00000000)
T19C4 001:542.284 - 0.145ms returns 0
T19C4 001:542.383 JLINK_WriteReg(R9, 0x200001CC)
T19C4 001:542.479 - 0.145ms returns 0
T19C4 001:542.580 JLINK_WriteReg(R10, 0x00000000)
T19C4 001:542.677 - 0.144ms returns 0
T19C4 001:542.777 JLINK_WriteReg(R11, 0x00000000)
T19C4 001:542.874 - 0.144ms returns 0
T19C4 001:542.973 JLINK_WriteReg(R12, 0x00000000)
T19C4 001:543.070 - 0.145ms returns 0
T19C4 001:543.177 JLINK_WriteReg(R13 (SP), 0x20000800)
T19C4 001:543.280 - 0.151ms returns 0
T19C4 001:543.380 JLINK_WriteReg(R14, 0x20000001)
T19C4 001:543.477 - 0.143ms returns 0
T19C4 001:543.575 JLINK_WriteReg(R15 (PC), 0x20000020)
T19C4 001:543.670 - 0.142ms returns 0
T19C4 001:543.769 JLINK_WriteReg(XPSR, 0x01000000)
T19C4 001:543.865 - 0.143ms returns 0
T19C4 001:543.964 JLINK_WriteReg(MSP, 0x20000800)
T19C4 001:544.060 - 0.143ms returns 0
T19C4 001:544.165 JLINK_WriteReg(PSP, 0x20000800)
T19C4 001:544.262 - 0.145ms returns 0
T19C4 001:544.362 JLINK_WriteReg(CFBP, 0x00000000)
T19C4 001:544.459 - 0.144ms returns 0
T19C4 001:544.559 JLINK_SetBPEx(Addr = 0x20000000, Type = 0xFFFFFFF2)
T19C4 001:544.658 - 0.146ms returns 0x00000007
T19C4 001:544.758 JLINK_Go()
T19C4 001:544.871   CPU_ReadMem(4 bytes @ 0xE0001000)
T19C4 001:557.857 - 13.202ms
T19C4 001:558.034 JLINK_IsHalted()
T19C4 001:559.172 - 1.210ms returns FALSE
T19C4 001:559.306 JLINK_HasError()
T19C4 001:671.279 JLINK_IsHalted()
T19C4 001:683.486   CPU_ReadMem(2 bytes @ 0x20000000)
T19C4 001:684.556 - 13.352ms returns TRUE
T19C4 001:684.695 JLINK_ReadReg(R15 (PC))
T19C4 001:684.804 - 0.157ms returns 0x20000000
T19C4 001:684.907 JLINK_ClrBPEx(BPHandle = 0x00000007)
T19C4 001:685.007 - 0.149ms returns 0x00
T19C4 001:685.110 JLINK_ReadReg(R0)
T19C4 001:685.213 - 0.152ms returns 0x00000000
T19C4 001:689.208 JLINK_HasError()
T19C4 001:689.312 JLINK_WriteReg(R0, 0x00000001)
T19C4 001:689.382 - 0.101ms returns 0
T19C4 001:689.447 JLINK_WriteReg(R1, 0x00020000)
T19C4 001:689.509 - 0.092ms returns 0
T19C4 001:689.573 JLINK_WriteReg(R2, 0x000000FF)
T19C4 001:689.639 - 0.096ms returns 0
T19C4 001:689.703 JLINK_WriteReg(R3, 0x00000000)
T19C4 001:689.764 - 0.091ms returns 0
T19C4 001:689.828 JLINK_WriteReg(R4, 0x00000000)
T19C4 001:689.890 - 0.092ms returns 0
T19C4 001:689.954 JLINK_WriteReg(R5, 0x00000000)
T19C4 001:690.015 - 0.091ms returns 0
T19C4 001:690.079 JLINK_WriteReg(R6, 0x00000000)
T19C4 001:690.141 - 0.092ms returns 0
T19C4 001:690.206 JLINK_WriteReg(R7, 0x00000000)
T19C4 001:690.268 - 0.093ms returns 0
T19C4 001:690.333 JLINK_WriteReg(R8, 0x00000000)
T19C4 001:690.394 - 0.092ms returns 0
T19C4 001:690.464 JLINK_WriteReg(R9, 0x200001CC)
T19C4 001:690.538 - 0.106ms returns 0
T19C4 001:690.603 JLINK_WriteReg(R10, 0x00000000)
T19C4 001:690.666 - 0.093ms returns 0
T19C4 001:690.732 JLINK_WriteReg(R11, 0x00000000)
T19C4 001:690.795 - 0.094ms returns 0
T19C4 001:690.861 JLINK_WriteReg(R12, 0x00000000)
T19C4 001:690.924 - 0.095ms returns 0
T19C4 001:690.991 JLINK_WriteReg(R13 (SP), 0x20000800)
T19C4 001:691.057 - 0.097ms returns 0
T19C4 001:691.123 JLINK_WriteReg(R14, 0x20000001)
T19C4 001:691.189 - 0.097ms returns 0
T19C4 001:691.256 JLINK_WriteReg(R15 (PC), 0x200000AC)
T19C4 001:691.320 - 0.095ms returns 0
T19C4 001:691.387 JLINK_WriteReg(XPSR, 0x01000000)
T19C4 001:691.449 - 0.093ms returns 0
T19C4 001:691.516 JLINK_WriteReg(MSP, 0x20000800)
T19C4 001:691.583 - 0.098ms returns 0
T19C4 001:691.648 JLINK_WriteReg(PSP, 0x20000800)
T19C4 001:691.712 - 0.096ms returns 0
T19C4 001:691.780 JLINK_WriteReg(CFBP, 0x00000000)
T19C4 001:691.948 - 0.207ms returns 0
T19C4 001:692.023 JLINK_SetBPEx(Addr = 0x20000000, Type = 0xFFFFFFF2)
T19C4 001:692.088 - 0.096ms returns 0x00000008
T19C4 001:692.153 JLINK_Go()
T19C4 001:692.234   CPU_ReadMem(4 bytes @ 0xE0001000)
T19C4 001:704.635 - 12.570ms
T19C4 001:704.795 JLINK_IsHalted()
T19C4 001:717.029   CPU_ReadMem(2 bytes @ 0x20000000)
T19C4 001:718.156 - 13.438ms returns TRUE
T19C4 001:718.307 JLINK_ReadReg(R15 (PC))
T19C4 001:718.418 - 0.160ms returns 0x20000000
T19C4 001:718.526 JLINK_ClrBPEx(BPHandle = 0x00000008)
T19C4 001:718.626 - 0.149ms returns 0x00
T19C4 001:718.732 JLINK_ReadReg(R0)
T19C4 001:718.845 - 0.162ms returns 0x00000000
T19C4 001:790.580 JLINK_WriteMem(0x20000000, 0x1D0 Bytes, ...)
T19C4 001:790.744   Data:  00 BE 0A E0 0D 78 2D 06 68 40 08 24 40 00 00 D3 ...
T19C4 001:790.920   CPU_WriteMem(464 bytes @ 0x20000000)
T19C4 001:797.525 - 7.015ms returns 0x1D0
T19C4 001:797.734 JLINK_HasError()
T19C4 001:797.850 JLINK_WriteReg(R0, 0x08004000)
T19C4 001:797.956 - 0.154ms returns 0
T19C4 001:798.057 JLINK_WriteReg(R1, 0x00B71B00)
T19C4 001:798.156 - 0.146ms returns 0
T19C4 001:798.256 JLINK_WriteReg(R2, 0x00000002)
T19C4 001:798.353 - 0.144ms returns 0
T19C4 001:798.453 JLINK_WriteReg(R3, 0x00000000)
T19C4 001:798.553 - 0.149ms returns 0
T19C4 001:798.655 JLINK_WriteReg(R4, 0x00000000)
T19C4 001:798.752 - 0.144ms returns 0
T19C4 001:798.851 JLINK_WriteReg(R5, 0x00000000)
T19C4 001:798.947 - 0.143ms returns 0
T19C4 001:799.047 JLINK_WriteReg(R6, 0x00000000)
T19C4 001:799.143 - 0.143ms returns 0
T19C4 001:799.243 JLINK_WriteReg(R7, 0x00000000)
T19C4 001:799.339 - 0.143ms returns 0
T19C4 001:799.438 JLINK_WriteReg(R8, 0x00000000)
T19C4 001:799.537 - 0.146ms returns 0
T19C4 001:799.637 JLINK_WriteReg(R9, 0x200001CC)
T19C4 001:799.732 - 0.143ms returns 0
T19C4 001:799.832 JLINK_WriteReg(R10, 0x00000000)
T19C4 001:799.928 - 0.143ms returns 0
T19C4 001:800.028 JLINK_WriteReg(R11, 0x00000000)
T19C4 001:800.125 - 0.145ms returns 0
T19C4 001:800.226 JLINK_WriteReg(R12, 0x00000000)
T19C4 001:800.324 - 0.145ms returns 0
T19C4 001:800.423 JLINK_WriteReg(R13 (SP), 0x20000800)
T19C4 001:800.523 - 0.147ms returns 0
T19C4 001:800.624 JLINK_WriteReg(R14, 0x20000001)
T19C4 001:800.720 - 0.145ms returns 0
T19C4 001:800.821 JLINK_WriteReg(R15 (PC), 0x20000070)
T19C4 001:800.918 - 0.145ms returns 0
T19C4 001:801.019 JLINK_WriteReg(XPSR, 0x01000000)
T19C4 001:801.116 - 0.145ms returns 0
T19C4 001:801.216 JLINK_WriteReg(MSP, 0x20000800)
T19C4 001:801.313 - 0.145ms returns 0
T19C4 001:801.414 JLINK_WriteReg(PSP, 0x20000800)
T19C4 001:801.512 - 0.148ms returns 0
T19C4 001:801.616 JLINK_WriteReg(CFBP, 0x00000000)
T19C4 001:801.714 - 0.147ms returns 0
T19C4 001:801.817 JLINK_SetBPEx(Addr = 0x20000000, Type = 0xFFFFFFF2)
T19C4 001:801.928   CPU_ReadMem(2 bytes @ 0x20000000)
T19C4 001:802.988 - 1.249ms returns 0x00000009
T19C4 001:803.130 JLINK_Go()
T19C4 001:803.241   CPU_WriteMem(2 bytes @ 0x20000000)
T19C4 001:804.042   CPU_ReadMem(4 bytes @ 0xE0001000)
T19C4 001:816.702 - 13.670ms
T19C4 001:816.865 JLINK_IsHalted()
T19C4 001:829.101   CPU_ReadMem(2 bytes @ 0x20000000)
T19C4 001:830.221 - 13.425ms returns TRUE
T19C4 001:830.362 JLINK_ReadReg(R15 (PC))
T19C4 001:830.470 - 0.156ms returns 0x20000000
T19C4 001:830.576 JLINK_ClrBPEx(BPHandle = 0x00000009)
T19C4 001:830.683 - 0.154ms returns 0x00
T19C4 001:830.788 JLINK_ReadReg(R0)
T19C4 001:830.887 - 0.148ms returns 0x00000000
T19C4 001:831.697 JLINK_WriteMem(0x200001D0, 0x400 Bytes, ...)
T19C4 001:831.811   Data:  80 FE 02 20 A1 42 00 08 61 83 00 08 3D 70 00 08 ...
T19C4 001:831.972   CPU_WriteMem(1024 bytes @ 0x200001D0)
T19C4 001:845.709 - 14.110ms returns 0x400
T19C4 001:845.874 JLINK_HasError()
T19C4 001:845.981 JLINK_WriteReg(R0, 0x08004000)
T19C4 001:846.091 - 0.159ms returns 0
T19C4 001:846.195 JLINK_WriteReg(R1, 0x00000400)
T19C4 001:846.294 - 0.148ms returns 0
T19C4 001:846.396 JLINK_WriteReg(R2, 0x200001D0)
T19C4 001:846.494 - 0.147ms returns 0
T19C4 001:846.600 JLINK_WriteReg(R3, 0x00000000)
T19C4 001:846.712 - 0.161ms returns 0
T19C4 001:846.815 JLINK_WriteReg(R4, 0x00000000)
T19C4 001:846.912 - 0.146ms returns 0
T19C4 001:847.013 JLINK_WriteReg(R5, 0x00000000)
T19C4 001:847.111 - 0.146ms returns 0
T19C4 001:847.212 JLINK_WriteReg(R6, 0x00000000)
T19C4 001:847.310 - 0.145ms returns 0
T19C4 001:847.410 JLINK_WriteReg(R7, 0x00000000)
T19C4 001:847.507 - 0.145ms returns 0
T19C4 001:847.610 JLINK_WriteReg(R8, 0x00000000)
T19C4 001:847.708 - 0.145ms returns 0
T19C4 001:847.808 JLINK_WriteReg(R9, 0x200001CC)
T19C4 001:847.907 - 0.148ms returns 0
T19C4 001:848.010 JLINK_WriteReg(R10, 0x00000000)
T19C4 001:848.108 - 0.146ms returns 0
T19C4 001:848.211 JLINK_WriteReg(R11, 0x00000000)
T19C4 001:848.309 - 0.146ms returns 0
T19C4 001:848.411 JLINK_WriteReg(R12, 0x00000000)
T19C4 001:848.508 - 0.145ms returns 0
T19C4 001:848.611 JLINK_WriteReg(R13 (SP), 0x20000800)
T19C4 001:848.711 - 0.149ms returns 0
T19C4 001:848.813 JLINK_WriteReg(R14, 0x20000001)
T19C4 001:848.910 - 0.145ms returns 0
T19C4 001:849.011 JLINK_WriteReg(R15 (PC), 0x20000158)
T19C4 001:849.109 - 0.145ms returns 0
T19C4 001:849.211 JLINK_WriteReg(XPSR, 0x01000000)
T19C4 001:849.308 - 0.145ms returns 0
T19C4 001:849.408 JLINK_WriteReg(MSP, 0x20000800)
T19C4 001:849.505 - 0.145ms returns 0
T19C4 001:849.606 JLINK_WriteReg(PSP, 0x20000800)
T19C4 001:849.704 - 0.147ms returns 0
T19C4 001:849.806 JLINK_WriteReg(CFBP, 0x00000000)
T19C4 001:849.904 - 0.145ms returns 0
T19C4 001:850.005 JLINK_SetBPEx(Addr = 0x20000000, Type = 0xFFFFFFF2)
T19C4 001:850.106 - 0.148ms returns 0x0000000A
T19C4 001:850.207 JLINK_Go()
T19C4 001:850.322   CPU_ReadMem(4 bytes @ 0xE0001000)
T19C4 001:863.627 - 13.518ms
T19C4 001:863.799 JLINK_IsHalted()
T19C4 001:865.155 - 1.460ms returns FALSE
T19C4 001:865.334 JLINK_HasError()
T19C4 001:966.152 JLINK_IsHalted()
T19C4 001:978.998   CPU_ReadMem(2 bytes @ 0x20000000)
T19C4 001:980.252 - 14.189ms returns TRUE
T19C4 001:980.415 JLINK_ReadReg(R15 (PC))
T19C4 001:980.526 - 0.162ms returns 0x20000000
T19C4 001:980.634 JLINK_ClrBPEx(BPHandle = 0x0000000A)
T19C4 001:980.734 - 0.148ms returns 0x00
T19C4 001:980.840 JLINK_ReadReg(R0)
T19C4 001:980.943 - 0.152ms returns 0x00000000
T19C4 001:982.538 JLINK_WriteMem(0x200001D0, 0x400 Bytes, ...)
T19C4 001:982.659   Data:  00 28 DE D1 70 BD 70 B5 04 46 05 1F 00 F0 D2 FB ...
T19C4 001:982.820   CPU_WriteMem(1024 bytes @ 0x200001D0)
T19C4 001:996.671 - 14.234ms returns 0x400
T19C4 001:996.841 JLINK_HasError()
T19C4 001:996.952 JLINK_WriteReg(R0, 0x08004400)
T19C4 001:997.063 - 0.159ms returns 0
T19C4 001:997.165 JLINK_WriteReg(R1, 0x00000400)
T19C4 001:997.264 - 0.148ms returns 0
T19C4 001:997.365 JLINK_WriteReg(R2, 0x200001D0)
T19C4 001:997.462 - 0.144ms returns 0
T19C4 001:997.561 JLINK_WriteReg(R3, 0x00000000)
T19C4 001:997.657 - 0.143ms returns 0
T19C4 001:997.757 JLINK_WriteReg(R4, 0x00000000)
T19C4 001:997.853 - 0.143ms returns 0
T19C4 001:997.952 JLINK_WriteReg(R5, 0x00000000)
T19C4 001:998.051 - 0.146ms returns 0
T19C4 001:998.151 JLINK_WriteReg(R6, 0x00000000)
T19C4 001:998.247 - 0.144ms returns 0
T19C4 001:998.347 JLINK_WriteReg(R7, 0x00000000)
T19C4 001:998.443 - 0.144ms returns 0
T19C4 001:998.543 JLINK_WriteReg(R8, 0x00000000)
T19C4 001:998.640 - 0.145ms returns 0
T19C4 001:998.740 JLINK_WriteReg(R9, 0x200001CC)
T19C4 001:998.836 - 0.145ms returns 0
T19C4 001:998.937 JLINK_WriteReg(R10, 0x00000000)
T19C4 001:999.035 - 0.146ms returns 0
T19C4 001:999.135 JLINK_WriteReg(R11, 0x00000000)
T19C4 001:999.232 - 0.144ms returns 0
T19C4 001:999.331 JLINK_WriteReg(R12, 0x00000000)
T19C4 001:999.428 - 0.144ms returns 0
T19C4 001:999.528 JLINK_WriteReg(R13 (SP), 0x20000800)
T19C4 001:999.626 - 0.145ms returns 0
T19C4 001:999.726 JLINK_WriteReg(R14, 0x20000001)
T19C4 001:999.822 - 0.145ms returns 0
T19C4 001:999.923 JLINK_WriteReg(R15 (PC), 0x20000158)
T19C4 002:000.030 - 0.155ms returns 0
T19C4 002:000.130 JLINK_WriteReg(XPSR, 0x01000000)
T19C4 002:000.228 - 0.145ms returns 0
T19C4 002:000.337 JLINK_WriteReg(MSP, 0x20000800)
T19C4 002:000.441 - 0.152ms returns 0
T19C4 002:000.542 JLINK_WriteReg(PSP, 0x20000800)
T19C4 002:000.638 - 0.144ms returns 0
T19C4 002:000.738 JLINK_WriteReg(CFBP, 0x00000000)
T19C4 002:000.835 - 0.144ms returns 0
T19C4 002:000.935 JLINK_SetBPEx(Addr = 0x20000000, Type = 0xFFFFFFF2)
T19C4 002:001.053 - 0.179ms returns 0x0000000B
T19C4 002:001.171 JLINK_Go()
T19C4 002:001.287   CPU_ReadMem(4 bytes @ 0xE0001000)
T19C4 002:014.243 - 13.170ms
T19C4 002:014.415 JLINK_IsHalted()
T19C4 002:015.590 - 1.275ms returns FALSE
T19C4 002:015.766 JLINK_HasError()
T19C4 002:192.875 JLINK_IsHalted()
T19C4 002:205.312   CPU_ReadMem(2 bytes @ 0x20000000)
T19C4 002:206.423 - 13.632ms returns TRUE
T19C4 002:206.579 JLINK_ReadReg(R15 (PC))
T19C4 002:206.689 - 0.167ms returns 0x20000000
T19C4 002:206.805 JLINK_ClrBPEx(BPHandle = 0x0000000B)
T19C4 002:206.993 - 0.237ms returns 0x00
T19C4 002:207.100 JLINK_ReadReg(R0)
T19C4 002:207.199 - 0.148ms returns 0x00000000
T19C4 002:209.134 JLINK_WriteMem(0x200001D0, 0x400 Bytes, ...)
T19C4 002:209.260   Data:  76 1E 01 98 7F 1C 24 F4 00 74 88 47 82 46 10 20 ...
T19C4 002:209.423   CPU_WriteMem(1024 bytes @ 0x200001D0)
T19C4 002:223.094 - 14.082ms returns 0x400
T19C4 002:223.301 JLINK_HasError()
T19C4 002:223.437 JLINK_WriteReg(R0, 0x08004800)
T19C4 002:223.579 - 0.242ms returns 0
T19C4 002:223.794 JLINK_WriteReg(R1, 0x00000400)
T19C4 002:223.992 - 0.302ms returns 0
T19C4 002:224.188 JLINK_WriteReg(R2, 0x200001D0)
T19C4 002:224.357 - 0.251ms returns 0
T19C4 002:224.530 JLINK_WriteReg(R3, 0x00000000)
T19C4 002:224.705 - 0.321ms returns 0
T19C4 002:224.990 JLINK_WriteReg(R4, 0x00000000)
T19C4 002:225.172 - 0.266ms returns 0
T19C4 002:225.349 JLINK_WriteReg(R5, 0x00000000)
T19C4 002:225.516 - 0.251ms returns 0
T19C4 002:225.704 JLINK_WriteReg(R6, 0x00000000)
T19C4 002:225.887 - 0.266ms returns 0
T19C4 002:226.062 JLINK_WriteReg(R7, 0x00000000)
T19C4 002:226.231 - 0.252ms returns 0
T19C4 002:226.405 JLINK_WriteReg(R8, 0x00000000)
T19C4 002:226.574 - 0.251ms returns 0
T19C4 002:226.756 JLINK_WriteReg(R9, 0x200001CC)
T19C4 002:226.927 - 0.253ms returns 0
T19C4 002:227.102 JLINK_WriteReg(R10, 0x00000000)
T19C4 002:227.271 - 0.253ms returns 0
T19C4 002:227.446 JLINK_WriteReg(R11, 0x00000000)
T19C4 002:227.616 - 0.263ms returns 0
T19C4 002:227.801 JLINK_WriteReg(R12, 0x00000000)
T19C4 002:227.973 - 0.253ms returns 0
T19C4 002:228.145 JLINK_WriteReg(R13 (SP), 0x20000800)
T19C4 002:228.317 - 0.254ms returns 0
T19C4 002:228.492 JLINK_WriteReg(R14, 0x20000001)
T19C4 002:228.684 - 0.275ms returns 0
T19C4 002:228.850 JLINK_WriteReg(R15 (PC), 0x20000158)
T19C4 002:229.003 - 0.226ms returns 0
T19C4 002:229.158 JLINK_WriteReg(XPSR, 0x01000000)
T19C4 002:229.307 - 0.223ms returns 0
T19C4 002:229.462 JLINK_WriteReg(MSP, 0x20000800)
T19C4 002:229.610 - 0.230ms returns 0
T19C4 002:229.775 JLINK_WriteReg(PSP, 0x20000800)
T19C4 002:229.926 - 0.224ms returns 0
T19C4 002:230.080 JLINK_WriteReg(CFBP, 0x00000000)
T19C4 002:230.228 - 0.222ms returns 0
T19C4 002:230.386 JLINK_SetBPEx(Addr = 0x20000000, Type = 0xFFFFFFF2)
T19C4 002:230.541 - 0.230ms returns 0x0000000C
T19C4 002:230.747 JLINK_Go()
T19C4 002:230.928   CPU_ReadMem(4 bytes @ 0xE0001000)
T19C4 002:244.760 - 14.157ms
T19C4 002:245.017 JLINK_IsHalted()
T19C4 002:246.640 - 1.765ms returns FALSE
T19C4 002:246.896 JLINK_HasError()
T19C4 002:371.832 JLINK_IsHalted()
T19C4 002:384.827   CPU_ReadMem(2 bytes @ 0x20000000)
T19C4 002:386.364 - 14.630ms returns TRUE
T19C4 002:386.537 JLINK_ReadReg(R15 (PC))
T19C4 002:386.649 - 0.161ms returns 0x20000000
T19C4 002:386.756 JLINK_ClrBPEx(BPHandle = 0x0000000C)
T19C4 002:386.872 - 0.164ms returns 0x00
T19C4 002:386.978 JLINK_ReadReg(R0)
T19C4 002:387.077 - 0.148ms returns 0x00000000
T19C4 002:388.704 JLINK_WriteMem(0x200001D0, 0x400 Bytes, ...)
T19C4 002:388.824   Data:  A0 42 0D D9 32 46 69 46 00 20 AF F3 00 80 07 00 ...
T19C4 002:388.988   CPU_WriteMem(1024 bytes @ 0x200001D0)
T19C4 002:402.917 - 14.319ms returns 0x400
T19C4 002:403.097 JLINK_HasError()
T19C4 002:403.206 JLINK_WriteReg(R0, 0x08004C00)
T19C4 002:403.315 - 0.158ms returns 0
T19C4 002:403.418 JLINK_WriteReg(R1, 0x00000400)
T19C4 002:403.517 - 0.147ms returns 0
T19C4 002:403.618 JLINK_WriteReg(R2, 0x200001D0)
T19C4 002:403.717 - 0.146ms returns 0
T19C4 002:403.818 JLINK_WriteReg(R3, 0x00000000)
T19C4 002:403.924 - 0.154ms returns 0
T19C4 002:404.025 JLINK_WriteReg(R4, 0x00000000)
T19C4 002:404.122 - 0.145ms returns 0
T19C4 002:404.224 JLINK_WriteReg(R5, 0x00000000)
T19C4 002:404.321 - 0.145ms returns 0
T19C4 002:404.422 JLINK_WriteReg(R6, 0x00000000)
T19C4 002:404.521 - 0.147ms returns 0
T19C4 002:404.623 JLINK_WriteReg(R7, 0x00000000)
T19C4 002:404.720 - 0.145ms returns 0
T19C4 002:404.820 JLINK_WriteReg(R8, 0x00000000)
T19C4 002:404.921 - 0.149ms returns 0
T19C4 002:405.023 JLINK_WriteReg(R9, 0x200001CC)
T19C4 002:405.120 - 0.145ms returns 0
T19C4 002:405.221 JLINK_WriteReg(R10, 0x00000000)
T19C4 002:405.318 - 0.145ms returns 0
T19C4 002:405.419 JLINK_WriteReg(R11, 0x00000000)
T19C4 002:405.517 - 0.146ms returns 0
T19C4 002:405.618 JLINK_WriteReg(R12, 0x00000000)
T19C4 002:405.715 - 0.146ms returns 0
T19C4 002:405.816 JLINK_WriteReg(R13 (SP), 0x20000800)
T19C4 002:405.919 - 0.150ms returns 0
T19C4 002:406.020 JLINK_WriteReg(R14, 0x20000001)
T19C4 002:406.117 - 0.146ms returns 0
T19C4 002:406.218 JLINK_WriteReg(R15 (PC), 0x20000158)
T19C4 002:406.316 - 0.145ms returns 0
T19C4 002:406.417 JLINK_WriteReg(XPSR, 0x01000000)
T19C4 002:406.514 - 0.145ms returns 0
T19C4 002:406.615 JLINK_WriteReg(MSP, 0x20000800)
T19C4 002:406.712 - 0.145ms returns 0
T19C4 002:406.812 JLINK_WriteReg(PSP, 0x20000800)
T19C4 002:406.914 - 0.151ms returns 0
T19C4 002:407.015 JLINK_WriteReg(CFBP, 0x00000000)
T19C4 002:407.112 - 0.144ms returns 0
T19C4 002:407.214 JLINK_SetBPEx(Addr = 0x20000000, Type = 0xFFFFFFF2)
T19C4 002:407.314 - 0.148ms returns 0x0000000D
T19C4 002:407.415 JLINK_Go()
T19C4 002:407.529   CPU_ReadMem(4 bytes @ 0xE0001000)
T19C4 002:420.906 - 13.588ms
T19C4 002:421.078 JLINK_IsHalted()
T19C4 002:422.195 - 1.215ms returns FALSE
T19C4 002:422.368 JLINK_HasError()
T19C4 002:471.186 JLINK_IsHalted()
T19C4 002:483.437   CPU_ReadMem(2 bytes @ 0x20000000)
T19C4 002:484.919 - 13.832ms returns TRUE
T19C4 002:485.102 JLINK_ReadReg(R15 (PC))
T19C4 002:485.212 - 0.159ms returns 0x20000000
T19C4 002:485.318 JLINK_ClrBPEx(BPHandle = 0x0000000D)
T19C4 002:485.425 - 0.155ms returns 0x00
T19C4 002:485.530 JLINK_ReadReg(R0)
T19C4 002:485.626 - 0.146ms returns 0x00000000
T19C4 002:487.004 JLINK_WriteMem(0x200001D0, 0x400 Bytes, ...)
T19C4 002:487.160   Data:  EE E7 00 2F 02 DC ED 1B 3E 44 03 E0 78 1C A8 42 ...
T19C4 002:487.327   CPU_WriteMem(1024 bytes @ 0x200001D0)
T19C4 002:501.349 - 14.444ms returns 0x400
T19C4 002:501.515 JLINK_HasError()
T19C4 002:501.622 JLINK_WriteReg(R0, 0x08005000)
T19C4 002:501.731 - 0.158ms returns 0
T19C4 002:501.834 JLINK_WriteReg(R1, 0x00000400)
T19C4 002:501.933 - 0.148ms returns 0
T19C4 002:502.035 JLINK_WriteReg(R2, 0x200001D0)
T19C4 002:502.133 - 0.146ms returns 0
T19C4 002:502.234 JLINK_WriteReg(R3, 0x00000000)
T19C4 002:502.395 - 0.216ms returns 0
T19C4 002:502.509 JLINK_WriteReg(R4, 0x00000000)
T19C4 002:502.606 - 0.144ms returns 0
T19C4 002:502.707 JLINK_WriteReg(R5, 0x00000000)
T19C4 002:502.804 - 0.144ms returns 0
T19C4 002:502.903 JLINK_WriteReg(R6, 0x00000000)
T19C4 002:502.998 - 0.142ms returns 0
T19C4 002:503.097 JLINK_WriteReg(R7, 0x00000000)
T19C4 002:503.198 - 0.149ms returns 0
T19C4 002:503.298 JLINK_WriteReg(R8, 0x00000000)
T19C4 002:503.394 - 0.143ms returns 0
T19C4 002:503.494 JLINK_WriteReg(R9, 0x200001CC)
T19C4 002:503.589 - 0.142ms returns 0
T19C4 002:503.689 JLINK_WriteReg(R10, 0x00000000)
T19C4 002:503.787 - 0.145ms returns 0
T19C4 002:503.886 JLINK_WriteReg(R11, 0x00000000)
T19C4 002:503.983 - 0.144ms returns 0
T19C4 002:504.082 JLINK_WriteReg(R12, 0x00000000)
T19C4 002:504.237 - 0.213ms returns 0
T19C4 002:504.358 JLINK_WriteReg(R13 (SP), 0x20000800)
T19C4 002:504.468 - 0.164ms returns 0
T19C4 002:504.576 JLINK_WriteReg(R14, 0x20000001)
T19C4 002:504.673 - 0.144ms returns 0
T19C4 002:504.772 JLINK_WriteReg(R15 (PC), 0x20000158)
T19C4 002:504.868 - 0.142ms returns 0
T19C4 002:504.967 JLINK_WriteReg(XPSR, 0x01000000)
T19C4 002:505.062 - 0.142ms returns 0
T19C4 002:505.161 JLINK_WriteReg(MSP, 0x20000800)
T19C4 002:505.260 - 0.147ms returns 0
T19C4 002:505.360 JLINK_WriteReg(PSP, 0x20000800)
T19C4 002:505.456 - 0.143ms returns 0
T19C4 002:505.555 JLINK_WriteReg(CFBP, 0x00000000)
T19C4 002:505.652 - 0.144ms returns 0
T19C4 002:505.753 JLINK_SetBPEx(Addr = 0x20000000, Type = 0xFFFFFFF2)
T19C4 002:505.855 - 0.149ms returns 0x0000000E
T19C4 002:505.955 JLINK_Go()
T19C4 002:506.069   CPU_ReadMem(4 bytes @ 0xE0001000)
T19C4 002:518.905 - 13.059ms
T19C4 002:519.089 JLINK_IsHalted()
T19C4 002:520.152 - 1.132ms returns FALSE
T19C4 002:520.288 JLINK_HasError()
T19C4 002:578.877 JLINK_IsHalted()
T19C4 002:591.530   CPU_ReadMem(2 bytes @ 0x20000000)
T19C4 002:592.883 - 14.105ms returns TRUE
T19C4 002:593.048 JLINK_ReadReg(R15 (PC))
T19C4 002:593.158 - 0.159ms returns 0x20000000
T19C4 002:593.261 JLINK_ClrBPEx(BPHandle = 0x0000000E)
T19C4 002:593.362 - 0.150ms returns 0x00
T19C4 002:593.482 JLINK_ReadReg(R0)
T19C4 002:593.582 - 0.149ms returns 0x00000000
T19C4 002:594.935 JLINK_WriteMem(0x200001D0, 0x400 Bytes, ...)
T19C4 002:595.052   Data:  88 47 DB E7 A1 69 0D 98 88 47 A8 42 07 46 01 D1 ...
T19C4 002:595.214   CPU_WriteMem(1024 bytes @ 0x200001D0)
T19C4 002:609.188 - 14.351ms returns 0x400
T19C4 002:609.362 JLINK_HasError()
T19C4 002:609.473 JLINK_WriteReg(R0, 0x08005400)
T19C4 002:609.583 - 0.159ms returns 0
T19C4 002:609.689 JLINK_WriteReg(R1, 0x00000400)
T19C4 002:609.788 - 0.148ms returns 0
T19C4 002:609.893 JLINK_WriteReg(R2, 0x200001D0)
T19C4 002:609.994 - 0.149ms returns 0
